
T1D08 000:337 SEGGER J-Link V4.96d Log File (0001ms, 0265ms total)
T1D08 000:337 DLL Compiled: Jan 29 2015 11:45:37 (0001ms, 0265ms total)
T1D08 000:337 Logging started @ 2018-04-26 01:16 (0001ms, 0265ms total)
T1D08 000:338 JLINK_SetWarnOutHandler(...) (0000ms, 0265ms total)
T1D08 000:338 JLINK_OpenEx(...)
Firmware: J-Link ARM V8 compiled Jan 31 2018 18:34:52
Hardware: V8.00
S/N: 20080643
Feature(s): RDI,FlashDL,FlashBP,JFlash,GDBFull  returns O.K. (0268ms, 0533ms total)
T1D08 000:606 JLINK_SetErrorOutHandler(...) (0000ms, 0533ms total)
T1D08 000:606 JLINK_ExecCommand("ProjectFile = "C:\Users\Rui\Tsinghua\classes\mechatronics_system_lab\Keil_Template\USER\JLinkSettings.ini"", ...)  returns 0x00 (0003ms, 0536ms total)
T1D08 000:609 JLINK_ExecCommand("Device = STM32F103VE", ...)Device "STM32F103VE" selected.  returns 0x00 (0002ms, 0538ms total)
T1D08 000:611 JLINK_ExecCommand("DisableConnectionTimeout", ...)  returns 0x01 (0000ms, 0538ms total)
T1D08 000:611 JLINK_GetHardwareVersion()  returns 0x13880 (0000ms, 0538ms total)
T1D08 000:611 JLINK_GetDLLVersion()  returns 49604 (0000ms, 0538ms total)
T1D08 000:611 JLINK_GetFirmwareString(...) (0000ms, 0538ms total)
T1D08 000:614 JLINK_GetDLLVersion()  returns 49604 (0000ms, 0538ms total)
T1D08 000:614 JLINK_GetCompileDateTime() (0000ms, 0538ms total)
T1D08 000:614 JLINK_GetFirmwareString(...) (0001ms, 0539ms total)
T1D08 000:615 JLINK_GetHardwareVersion()  returns 0x13880 (0000ms, 0539ms total)
T1D08 000:616 JLINK_TIF_Select(JLINKARM_TIF_JTAG)  returns 0x00 (0002ms, 0541ms total)
T1D08 000:618 JLINK_SetSpeed(10000) (0000ms, 0541ms total)
T1D08 000:618 JLINK_GetIdData(...) >0x2F8 JTAG>TotalIRLen = 9, IRPrint = 0x0011 >0x30 JTAG> >0x210 JTAG> >0x40 JTAG> >0x40 JTAG> >0x40 JTAG> >0x30 JTAG> >0x40 JTAG> >0x40 JTAG> >0x40 JTAG> >0x40 JTAG> >0x40 JTAG> >0x40 JTAG> >0x40 JTAG> >0x40 JTAG> >0x2F8 JTAG>TotalIRLen = 9, IRPrint = 0x0011 >0x30 JTAG> >0x210 JTAG> >0x70 JTAG> >0x40 JTAG> >0x40 JTAG> >0x40 JTAG> >0x50 JTAG> >0x80 JTAG> >0x40 JTAG> >0x30 JTAG> >0x40 JTAG> >0x40 JTAG> >0x30 JTAG> >0x40 JTAG> >0x50 JTAG>
Found Cortex-M3 r1p1, Little endian. -- CPU_WriteMem(4 bytes @ 0xE0002000) -- CPU_ReadMem(4 bytes @ 0xE000EDF0) -- CPU_ReadMem(4 bytes @ 0xE0002000)FPUnit: 6 code (BP) slots and 2 literal slots -- CPU_ReadMem(4 bytes @ 0xE000EDFC) -- CPU_ReadMem(4 bytes @ 0xE0001000) -- CPU_WriteMem(4 bytes @ 0xE0001000) -- CPU_ReadMem(4 bytes @ 0xE000ED88) -- CPU_WriteMem(4 bytes @ 0xE000ED88) -- CPU_ReadMem(4 bytes @ 0xE000ED88) -- CPU_WriteMem(4 bytes @ 0xE000ED88) -- CPU_ReadMem(4 bytes @ 0xE00FF010)TPIU fitted.
 -- CPU_ReadMem(4 bytes @ 0xE00FF014)ETM fitted. -- CPU_ReadMem(4 bytes @ 0xE00FF018) ScanLen=9 NumDevices=2 aId[0]=0x3BA00477 aIrRead[0]=0 aScanLen[0]=0 aScanRead[0]=0 (0032ms, 0573ms total)
T1D08 000:650 JLINK_JTAG_GetDeviceID(DeviceIndex = 0)  returns 0x3BA00477 (0000ms, 0573ms total)
T1D08 000:650 JLINK_JTAG_GetDeviceInfo(DeviceIndex = 0)  returns 0x00 (0000ms, 0573ms total)
T1D08 000:650 JLINK_JTAG_GetDeviceID(DeviceIndex = 1)  returns 0x6414041 (0000ms, 0573ms total)
T1D08 000:650 JLINK_JTAG_GetDeviceInfo(DeviceIndex = 1)  returns 0x00 (0000ms, 0573ms total)
T1D08 000:650 JLINK_GetDLLVersion()  returns 49604 (0000ms, 0573ms total)
T1D08 000:650 JLINK_CORE_GetFound()  returns 0x30000FF (0001ms, 0574ms total)
T1D08 000:651 JLINK_GetDebugInfo(0x100) -- Value=0xE00FF003  returns 0x00 (0000ms, 0574ms total)
T1D08 000:651 JLINK_ReadMem (0xE00FF000, 0x0020 Bytes, ...) -- CPU is running -- CPU_ReadMem(32 bytes @ 0xE00FF000) - Data: 03 F0 F0 FF 03 20 F0 FF 03 30 F0 FF 03 10 F0 FF ...  returns 0x00 (0001ms, 0575ms total)
T1D08 000:652 JLINK_ReadMem (0xE000EFF0, 0x0010 Bytes, ...) -- CPU is running -- CPU_ReadMem(16 bytes @ 0xE000EFF0) - Data: 0D 00 00 00 E0 00 00 00 05 00 00 00 B1 00 00 00  returns 0x00 (0000ms, 0575ms total)
T1D08 000:652 JLINK_ReadMem (0xE000EFD0, 0x0020 Bytes, ...) -- CPU is running -- CPU_ReadMem(32 bytes @ 0xE000EFD0) - Data: 04 00 00 00 00 00 00 00 00 00 00 00 00 00 00 00 ...  returns 0x00 (0001ms, 0576ms total)
T1D08 000:653 JLINK_ReadMem (0xE0001FF0, 0x0010 Bytes, ...) -- CPU is running -- CPU_ReadMem(16 bytes @ 0xE0001FF0) - Data: 0D 00 00 00 E0 00 00 00 05 00 00 00 B1 00 00 00  returns 0x00 (0001ms, 0577ms total)
T1D08 000:654 JLINK_ReadMem (0xE0001FD0, 0x0020 Bytes, ...) -- CPU is running -- CPU_ReadMem(32 bytes @ 0xE0001FD0) - Data: 04 00 00 00 00 00 00 00 00 00 00 00 00 00 00 00 ...  returns 0x00 (0001ms, 0578ms total)
T1D08 000:655 JLINK_ReadMem (0xE0002FF0, 0x0010 Bytes, ...) -- CPU is running -- CPU_ReadMem(16 bytes @ 0xE0002FF0) - Data: 0D 00 00 00 E0 00 00 00 05 00 00 00 B1 00 00 00  returns 0x00 (0001ms, 0579ms total)
T1D08 000:656 JLINK_ReadMem (0xE0002FD0, 0x0020 Bytes, ...) -- CPU is running -- CPU_ReadMem(32 bytes @ 0xE0002FD0) - Data: 04 00 00 00 00 00 00 00 00 00 00 00 00 00 00 00 ...  returns 0x00 (0000ms, 0579ms total)
T1D08 000:656 JLINK_ReadMem (0xE0000FF0, 0x0010 Bytes, ...) -- CPU is running -- CPU_ReadMem(16 bytes @ 0xE0000FF0) - Data: 0D 00 00 00 E0 00 00 00 05 00 00 00 B1 00 00 00  returns 0x00 (0001ms, 0580ms total)
T1D08 000:657 JLINK_ReadMem (0xE0000FD0, 0x0020 Bytes, ...) -- CPU is running -- CPU_ReadMem(32 bytes @ 0xE0000FD0) - Data: 04 00 00 00 00 00 00 00 00 00 00 00 00 00 00 00 ...  returns 0x00 (0001ms, 0581ms total)
T1D08 000:658 JLINK_ReadMem (0xE0040FF0, 0x0010 Bytes, ...) -- CPU is running -- CPU_ReadMem(16 bytes @ 0xE0040FF0) - Data: 0D 00 00 00 90 00 00 00 05 00 00 00 B1 00 00 00  returns 0x00 (0001ms, 0582ms total)
T1D08 000:659 JLINK_ReadMem (0xE0040FD0, 0x0020 Bytes, ...) -- CPU is running -- CPU_ReadMem(32 bytes @ 0xE0040FD0) - Data: 04 00 00 00 00 00 00 00 00 00 00 00 00 00 00 00 ...  returns 0x00 (0000ms, 0582ms total)
T1D08 000:659 JLINK_ReadMem (0xE0041FF0, 0x0010 Bytes, ...) -- CPU is running -- CPU_ReadMem(16 bytes @ 0xE0041FF0) - Data: 0D 00 00 00 90 00 00 00 05 00 00 00 B1 00 00 00  returns 0x00 (0001ms, 0583ms total)
T1D08 000:660 JLINK_ReadMem (0xE0041FD0, 0x0020 Bytes, ...) -- CPU is running -- CPU_ReadMem(32 bytes @ 0xE0041FD0) - Data: 04 00 00 00 00 00 00 00 00 00 00 00 00 00 00 00 ...  returns 0x00 (0001ms, 0584ms total)
T1D08 000:661 JLINK_ReadMemU32(0xE000ED00, 0x0001 Items, ...) -- CPU is running -- CPU_ReadMem(4 bytes @ 0xE000ED00) - Data: 31 C2 1F 41  returns 0x01 (0001ms, 0585ms total)
T1D08 000:662 JLINK_SetResetType(JLINKARM_RESET_TYPE_NORMAL)  returns JLINKARM_RESET_TYPE_NORMAL (0000ms, 0585ms total)
T1D08 000:662 JLINK_Reset() -- CPU is running -- CPU_WriteMem(4 bytes @ 0xE000EDF0) -- CPU is running -- CPU_WriteMem(4 bytes @ 0xE000EDFC) -- CPU is running -- CPU_WriteMem(4 bytes @ 0xE000ED0C) -- CPU is running -- CPU_ReadMem(4 bytes @ 0xE000EDF0) -- CPU is running -- CPU_ReadMem(4 bytes @ 0xE000EDF0) -- CPU is running -- CPU_WriteMem(4 bytes @ 0xE000EDF0) -- CPU is running -- CPU_WriteMem(4 bytes @ 0xE000EDFC) -- CPU is running -- CPU_ReadMem(4 bytes @ 0xE000EDF0) >0x80 JTAG> >0x40 JTAG> >0x30 JTAG>
 >0x40 JTAG> >0x50 JTAG> >0x40 JTAG> -- CPU_WriteMem(4 bytes @ 0xE000EDFC) -- CPU_WriteMem(4 bytes @ 0xE0001028) -- CPU_WriteMem(4 bytes @ 0xE0001038) -- CPU_WriteMem(4 bytes @ 0xE0001048) -- CPU_WriteMem(4 bytes @ 0xE0001058) -- CPU_WriteMem(4 bytes @ 0xE0002000) -- CPU_ReadMem(4 bytes @ 0xE000EDFC) -- CPU_ReadMem(4 bytes @ 0xE0001000) (0026ms, 0611ms total)
T1D08 000:688 JLINK_ReadReg(R15 (PC))  returns 0x08000144 (0000ms, 0611ms total)
T1D08 000:688 JLINK_ReadReg(XPSR)  returns 0x01000000 (0000ms, 0611ms total)
T1D08 000:688 JLINK_Halt()  returns 0x00 (0000ms, 0611ms total)
T1D08 000:688 JLINK_IsHalted()  returns TRUE (0000ms, 0611ms total)
T1D08 000:688 JLINK_ReadMemU32(0xE000EDF0, 0x0001 Items, ...) -- CPU_ReadMem(4 bytes @ 0xE000EDF0) - Data: 03 00 03 00  returns 0x01 (0001ms, 0612ms total)
T1D08 000:689 JLINK_WriteU32(0xE000EDF0, 0xA05F0003) -- CPU_WriteMem(4 bytes @ 0xE000EDF0)  returns 0x00 (0000ms, 0612ms total)
T1D08 000:689 JLINK_WriteU32(0xE000EDFC, 0x01000000) -- CPU_WriteMem(4 bytes @ 0xE000EDFC)  returns 0x00 (0000ms, 0612ms total)
T1D08 000:691 JLINK_GetHWStatus(...)  returns 0x00 (0000ms, 0613ms total)
T1D08 000:692 JLINK_GetNumBPUnits(Type = 0xFFFFFF00)  returns 0x06 (0000ms, 0613ms total)
T1D08 000:692 JLINK_GetNumBPUnits(Type = 0xF0)  returns 0x2000 (0000ms, 0613ms total)
T1D08 000:692 JLINK_GetNumWPUnits()  returns 0x04 (0000ms, 0613ms total)
T1D08 000:692 JLINK_GetSpeed()  returns 0x2580 (0001ms, 0614ms total)
T1D08 000:695 JLINK_ReadMemU32(0xE000E004, 0x0001 Items, ...) -- CPU_ReadMem(4 bytes @ 0xE000E004) - Data: 01 00 00 00  returns 0x01 (0000ms, 0614ms total)
T1D08 000:695 JLINK_ReadMemU32(0xE000E004, 0x0001 Items, ...) -- CPU_ReadMem(4 bytes @ 0xE000E004) - Data: 01 00 00 00  returns 0x01 (0001ms, 0615ms total)
T1D08 000:696 JLINK_WriteMem(0xE0001000, 0x001C Bytes, ...) - Data: 01 00 00 00 00 00 00 00 00 00 00 00 00 00 00 00 ... -- CPU_WriteMem(28 bytes @ 0xE0001000)  returns 0x1C (0002ms, 0617ms total)
T1D08 000:698 JLINK_ReadMem (0xE0001000, 0x001C Bytes, ...) -- CPU_ReadMem(28 bytes @ 0xE0001000) - Data: 01 00 00 40 00 00 00 00 00 00 00 00 00 00 00 00 ...  returns 0x00 (0001ms, 0618ms total)
T1D08 000:699 JLINK_ReadReg(R15 (PC))  returns 0x08000144 (0000ms, 0618ms total)
T1D08 000:699 JLINK_ReadReg(XPSR)  returns 0x01000000 (0000ms, 0618ms total)
T1D08 000:859 JLINK_SetResetType(JLINKARM_RESET_TYPE_NORMAL)  returns JLINKARM_RESET_TYPE_NORMAL (0000ms, 0618ms total)
T1D08 000:859 JLINK_Reset() -- CPU_WriteMem(4 bytes @ 0xE000EDF0) -- CPU_WriteMem(4 bytes @ 0xE000EDFC) -- CPU_WriteMem(4 bytes @ 0xE000ED0C) -- CPU_ReadMem(4 bytes @ 0xE000EDF0) -- CPU_ReadMem(4 bytes @ 0xE000EDF0) -- CPU_WriteMem(4 bytes @ 0xE000EDF0) -- CPU_WriteMem(4 bytes @ 0xE000EDFC) -- CPU is running -- CPU_ReadMem(4 bytes @ 0xE000EDF0) >0x80 JTAG> >0x40 JTAG> >0x30 JTAG> >0x40 JTAG> >0x50 JTAG> >0x40 JTAG> -- CPU_WriteMem(4 bytes @ 0xE000EDFC) -- CPU_WriteMem(4 bytes @ 0xE0001028)
 -- CPU_WriteMem(4 bytes @ 0xE0001038) -- CPU_WriteMem(4 bytes @ 0xE0001048) -- CPU_WriteMem(4 bytes @ 0xE0001058) -- CPU_WriteMem(4 bytes @ 0xE0002000) -- CPU_ReadMem(4 bytes @ 0xE000EDFC) -- CPU_ReadMem(4 bytes @ 0xE0001000) (0027ms, 0645ms total)
T1D08 000:886 JLINK_ReadReg(R15 (PC))  returns 0x08000144 (0001ms, 0646ms total)
T1D08 000:887 JLINK_ReadReg(XPSR)  returns 0x01000000 (0000ms, 0646ms total)
T1D08 000:888 JLINK_ReadMem (0x08000144, 0x003C Bytes, ...) -- CPU_ReadMem(64 bytes @ 0x08000140) -- Updating C cache (64 bytes @ 0x08000140) -- Read from C cache (60 bytes @ 0x08000144) - Data: 06 48 80 47 06 48 00 47 FE E7 FE E7 FE E7 FE E7 ...  returns 0x00 (0001ms, 0647ms total)
T1D08 002:734 JLINK_ReadMem (0x40010C14, 0x0004 Bytes, ...) -- CPU_ReadMem(4 bytes @ 0x40010C14) - Data: 00 00 00 00  returns 0x00 (0000ms, 0647ms total)
T1D08 002:735 JLINK_ReadMem (0x40010C14, 0x0004 Bytes, ...) -- CPU_ReadMem(4 bytes @ 0x40010C14) - Data: 00 00 00 00  returns 0x00 (0001ms, 0648ms total)
T1D08 002:736 JLINK_ReadMem (0x40010C14, 0x0004 Bytes, ...) -- CPU_ReadMem(4 bytes @ 0x40010C14) - Data: 00 00 00 00  returns 0x00 (0000ms, 0648ms total)
T1D08 002:742 JLINK_ReadMem (0x40010C10, 0x0004 Bytes, ...) -- CPU_ReadMem(4 bytes @ 0x40010C10) - Data: 00 00 00 00  returns 0x00 (0001ms, 0649ms total)
T1D08 002:743 JLINK_ReadMem (0x40010C10, 0x0004 Bytes, ...) -- CPU_ReadMem(4 bytes @ 0x40010C10) - Data: 00 00 00 00  returns 0x00 (0001ms, 0650ms total)
T1D08 002:744 JLINK_ReadMem (0x40010C10, 0x0004 Bytes, ...) -- CPU_ReadMem(4 bytes @ 0x40010C10) - Data: 00 00 00 00  returns 0x00 (0001ms, 0651ms total)
T1D08 002:751 JLINK_ReadMem (0x40011814, 0x0004 Bytes, ...) -- CPU_ReadMem(4 bytes @ 0x40011814) - Data: 00 00 00 00  returns 0x00 (0000ms, 0651ms total)
T1D08 002:752 JLINK_ReadMem (0x40011814, 0x0004 Bytes, ...) -- CPU_ReadMem(4 bytes @ 0x40011814) - Data: 00 00 00 00  returns 0x00 (0000ms, 0651ms total)
T1D08 002:752 JLINK_ReadMem (0x40011814, 0x0004 Bytes, ...) -- CPU_ReadMem(4 bytes @ 0x40011814) - Data: 00 00 00 00  returns 0x00 (0001ms, 0652ms total)
T1D08 002:763 JLINK_ReadMem (0x40011810, 0x0004 Bytes, ...) -- CPU_ReadMem(4 bytes @ 0x40011810) - Data: 00 00 00 00  returns 0x00 (0000ms, 0652ms total)
T1D08 002:764 JLINK_ReadMem (0x40011810, 0x0004 Bytes, ...) -- CPU_ReadMem(4 bytes @ 0x40011810) - Data: 00 00 00 00  returns 0x00 (0001ms, 0653ms total)
T1D08 002:765 JLINK_ReadMem (0x40011810, 0x0004 Bytes, ...) -- CPU_ReadMem(4 bytes @ 0x40011810) - Data: 00 00 00 00  returns 0x00 (0000ms, 0653ms total)
T1D08 002:834 JLINK_ReadMem (0x40000824, 0x0002 Bytes, ...) -- CPU_ReadMem(2 bytes @ 0x40000824) - Data: 00 00  returns 0x00 (0001ms, 0654ms total)
T1D08 002:835 JLINK_ReadMem (0x40000824, 0x0002 Bytes, ...) -- CPU_ReadMem(2 bytes @ 0x40000824) - Data: 00 00  returns 0x00 (0001ms, 0655ms total)
T1D08 002:836 JLINK_ReadMem (0x40000824, 0x0002 Bytes, ...) -- CPU_ReadMem(2 bytes @ 0x40000824) - Data: 00 00  returns 0x00 (0001ms, 0656ms total)
T0914 002:918 JLINK_SetBPEx(Addr = 0x08000E80, Type = 0xFFFFFFF2)  returns 0x00000001 (0000ms, 0656ms total)
T0914 002:918 JLINK_SetBPEx(Addr = 0x08000486, Type = 0xFFFFFFF2)  returns 0x00000002 (0000ms, 0656ms total)
T0914 002:918 JLINK_Go() -- CPU_WriteMem(4 bytes @ 0xE0002008) -- CPU_WriteMem(4 bytes @ 0xE000200C) -- CPU_WriteMem(4 bytes @ 0xE0002010) -- CPU_WriteMem(4 bytes @ 0xE0002014) -- CPU_WriteMem(4 bytes @ 0xE0002018) -- CPU_WriteMem(4 bytes @ 0xE000201C) -- CPU_WriteMem(4 bytes @ 0xE0001004) (0003ms, 0659ms total)
T0914 003:021 JLINK_IsHalted()  returns TRUE (0002ms, 0661ms total)
T0914 003:023 JLINK_Halt()  returns 0x00 (0000ms, 0659ms total)
T0914 003:023 JLINK_IsHalted()  returns TRUE (0000ms, 0659ms total)
T0914 003:023 JLINK_IsHalted()  returns TRUE (0000ms, 0659ms total)
T0914 003:023 JLINK_IsHalted()  returns TRUE (0000ms, 0659ms total)
T0914 003:023 JLINK_ReadReg(R15 (PC))  returns 0x08000E80 (0000ms, 0659ms total)
T0914 003:023 JLINK_ReadReg(XPSR)  returns 0x61000000 (0000ms, 0659ms total)
T0914 003:023 JLINK_ClrBPEx(BPHandle = 0x00000001)  returns 0x00 (0000ms, 0659ms total)
T0914 003:023 JLINK_ClrBPEx(BPHandle = 0x00000002)  returns 0x00 (0000ms, 0659ms total)
T0914 003:023 JLINK_ReadMemU32(0xE000ED30, 0x0001 Items, ...) -- CPU_ReadMem(4 bytes @ 0xE000ED30) - Data: 03 00 00 00  returns 0x01 (0001ms, 0660ms total)
T0914 003:024 JLINK_ReadMemU32(0xE0001028, 0x0001 Items, ...) -- CPU_ReadMem(4 bytes @ 0xE0001028) - Data: 00 00 00 00  returns 0x01 (0000ms, 0660ms total)
T0914 003:024 JLINK_ReadMemU32(0xE0001038, 0x0001 Items, ...) -- CPU_ReadMem(4 bytes @ 0xE0001038) - Data: 00 02 00 00  returns 0x01 (0001ms, 0661ms total)
T0914 003:025 JLINK_ReadMemU32(0xE0001048, 0x0001 Items, ...) -- CPU_ReadMem(4 bytes @ 0xE0001048) - Data: 00 00 00 00  returns 0x01 (0000ms, 0661ms total)
T0914 003:025 JLINK_ReadMemU32(0xE0001058, 0x0001 Items, ...) -- CPU_ReadMem(4 bytes @ 0xE0001058) - Data: 00 00 00 00  returns 0x01 (0001ms, 0662ms total)
T0914 003:026 JLINK_ReadReg(R0)  returns 0x08000E81 (0000ms, 0662ms total)
T0914 003:026 JLINK_ReadReg(R1)  returns 0x200004F8 (0000ms, 0662ms total)
T0914 003:026 JLINK_ReadReg(R2)  returns 0x00000000 (0000ms, 0662ms total)
T0914 003:026 JLINK_ReadReg(R3)  returns 0x08000E2B (0000ms, 0662ms total)
T0914 003:026 JLINK_ReadReg(R4)  returns 0x08000F24 (0000ms, 0662ms total)
T0914 003:026 JLINK_ReadReg(R5)  returns 0x08000F24 (0000ms, 0662ms total)
T0914 003:026 JLINK_ReadReg(R6)  returns 0x0000001E (0000ms, 0662ms total)
T0914 003:026 JLINK_ReadReg(R7)  returns 0x00000000 (0000ms, 0662ms total)
T0914 003:026 JLINK_ReadReg(R8)  returns 0x00000000 (0000ms, 0662ms total)
T0914 003:026 JLINK_ReadReg(R9)  returns 0x20000160 (0000ms, 0662ms total)
T0914 003:026 JLINK_ReadReg(R10)  returns 0x00000000 (0000ms, 0662ms total)
T0914 003:026 JLINK_ReadReg(R11)  returns 0x00000000 (0000ms, 0662ms total)
T0914 003:026 JLINK_ReadReg(R12)  returns 0x000000C0 (0000ms, 0662ms total)
T0914 003:026 JLINK_ReadReg(R13 (SP))  returns 0x200004F8 (0000ms, 0662ms total)
T0914 003:026 JLINK_ReadReg(R14)  returns 0x08000185 (0000ms, 0662ms total)
T0914 003:026 JLINK_ReadReg(R15 (PC))  returns 0x08000E80 (0000ms, 0662ms total)
T0914 003:026 JLINK_ReadReg(XPSR)  returns 0x61000000 (0000ms, 0662ms total)
T0914 003:026 JLINK_ReadReg(MSP)  returns 0x200004F8 (0000ms, 0662ms total)
T0914 003:026 JLINK_ReadReg(PSP)  returns 0x20001000 (0000ms, 0662ms total)
T0914 003:026 JLINK_ReadReg(CFBP)  returns 0x00000000 (0000ms, 0662ms total)
T1D08 003:028 JLINK_ReadMemU32(0xE0001004, 0x0001 Items, ...) -- CPU_ReadMem(4 bytes @ 0xE0001004) - Data: CB 1B 00 00  returns 0x01 (0006ms, 0668ms total)
T1D08 003:034 JLINK_ReadMem (0x40010C14, 0x0004 Bytes, ...) -- CPU_ReadMem(4 bytes @ 0x40010C14) - Data: 00 00 00 00  returns 0x00 (0000ms, 0668ms total)
T1D08 003:034 JLINK_ReadMem (0x40010C10, 0x0004 Bytes, ...) -- CPU_ReadMem(4 bytes @ 0x40010C10) - Data: 00 00 00 00  returns 0x00 (0001ms, 0669ms total)
T1D08 003:035 JLINK_ReadMem (0x40011814, 0x0004 Bytes, ...) -- CPU_ReadMem(4 bytes @ 0x40011814) - Data: 00 00 00 00  returns 0x00 (0000ms, 0669ms total)
T1D08 003:035 JLINK_ReadMem (0x40011810, 0x0004 Bytes, ...) -- CPU_ReadMem(4 bytes @ 0x40011810) - Data: 00 00 00 00  returns 0x00 (0001ms, 0670ms total)
T1D08 003:046 JLINK_ReadMem (0x20000008, 0x0004 Bytes, ...) -- CPU_ReadMem(64 bytes @ 0x20000000) -- Updating C cache (64 bytes @ 0x20000000) -- Read from C cache (4 bytes @ 0x20000008) - Data: 00 00 00 00  returns 0x00 (0001ms, 0671ms total)
T1D08 003:056 JLINK_ReadMem (0x20000000, 0x0004 Bytes, ...) -- Read from C cache (4 bytes @ 0x20000000) - Data: 00 00 00 00  returns 0x00 (0000ms, 0671ms total)
T1D08 003:064 JLINK_ReadMem (0x40000824, 0x0002 Bytes, ...) -- CPU_ReadMem(2 bytes @ 0x40000824) - Data: 00 00  returns 0x00 (0000ms, 0671ms total)
T1D08 003:064 JLINK_ReadMem (0x2000000C, 0x0004 Bytes, ...) -- Read from C cache (4 bytes @ 0x2000000C) - Data: 00 00 00 00  returns 0x00 (0000ms, 0671ms total)
T1D08 003:073 JLINK_ReadMem (0x20000004, 0x0004 Bytes, ...) -- Read from C cache (4 bytes @ 0x20000004) - Data: 00 00 00 00  returns 0x00 (0000ms, 0671ms total)
T1D08 003:089 JLINK_ReadMem (0x08000E80, 0x003C Bytes, ...) -- CPU_ReadMem(64 bytes @ 0x08000E80) -- Updating C cache (64 bytes @ 0x08000E80) -- Read from C cache (60 bytes @ 0x08000E80) - Data: 47 24 31 25 1E 26 32 46 29 46 20 46 FF F7 EC FE ...  returns 0x00 (0001ms, 0672ms total)
T0914 005:643 JLINK_SetBPEx(Addr = 0x08000486, Type = 0xFFFFFFF2)  returns 0x00000003 (0000ms, 0672ms total)
T0914 005:643 JLINK_Go() -- CPU_WriteMem(4 bytes @ 0xE0002008) -- CPU_WriteMem(4 bytes @ 0xE000200C) (0001ms, 0673ms total)
T0914 005:745 JLINK_IsHalted()  returns TRUE (0003ms, 0676ms total)
T0914 005:748 JLINK_Halt()  returns 0x00 (0000ms, 0673ms total)
T0914 005:748 JLINK_IsHalted()  returns TRUE (0000ms, 0673ms total)
T0914 005:748 JLINK_IsHalted()  returns TRUE (0000ms, 0673ms total)
T0914 005:748 JLINK_IsHalted()  returns TRUE (0000ms, 0673ms total)
T0914 005:748 JLINK_ReadReg(R15 (PC))  returns 0x08000486 (0000ms, 0673ms total)
T0914 005:748 JLINK_ReadReg(XPSR)  returns 0x2100000F (0000ms, 0673ms total)
T0914 005:748 JLINK_ClrBPEx(BPHandle = 0x00000003)  returns 0x00 (0000ms, 0673ms total)
T0914 005:748 JLINK_ReadMemU32(0xE000ED30, 0x0001 Items, ...) -- CPU_ReadMem(4 bytes @ 0xE000ED30) - Data: 03 00 00 00  returns 0x01 (0001ms, 0674ms total)
T0914 005:749 JLINK_ReadMemU32(0xE0001028, 0x0001 Items, ...) -- CPU_ReadMem(4 bytes @ 0xE0001028) - Data: 00 00 00 00  returns 0x01 (0001ms, 0675ms total)
T0914 005:750 JLINK_ReadMemU32(0xE0001038, 0x0001 Items, ...) -- CPU_ReadMem(4 bytes @ 0xE0001038) - Data: 00 02 00 00  returns 0x01 (0001ms, 0676ms total)
T0914 005:751 JLINK_ReadMemU32(0xE0001048, 0x0001 Items, ...) -- CPU_ReadMem(4 bytes @ 0xE0001048) - Data: 00 00 00 00  returns 0x01 (0000ms, 0676ms total)
T0914 005:751 JLINK_ReadMemU32(0xE0001058, 0x0001 Items, ...) -- CPU_ReadMem(4 bytes @ 0xE0001058) - Data: 00 00 00 00  returns 0x01 (0001ms, 0677ms total)
T0914 005:752 JLINK_ReadReg(R0)  returns 0x00000007 (0000ms, 0677ms total)
T0914 005:752 JLINK_ReadReg(R1)  returns 0x0036EE80 (0000ms, 0677ms total)
T0914 005:752 JLINK_ReadReg(R2)  returns 0xE000E000 (0000ms, 0677ms total)
T0914 005:752 JLINK_ReadReg(R3)  returns 0xE000ED18 (0000ms, 0677ms total)
T0914 005:752 JLINK_ReadReg(R4)  returns 0x00000047 (0000ms, 0677ms total)
T0914 005:752 JLINK_ReadReg(R5)  returns 0x00000031 (0000ms, 0677ms total)
T0914 005:752 JLINK_ReadReg(R6)  returns 0x0000001E (0000ms, 0677ms total)
T0914 005:752 JLINK_ReadReg(R7)  returns 0x00000000 (0000ms, 0677ms total)
T0914 005:753 JLINK_ReadReg(R8)  returns 0x00000000 (0000ms, 0678ms total)
T0914 005:753 JLINK_ReadReg(R9)  returns 0x20000160 (0000ms, 0678ms total)
T0914 005:753 JLINK_ReadReg(R10)  returns 0x00000000 (0000ms, 0678ms total)
T0914 005:753 JLINK_ReadReg(R11)  returns 0x00000000 (0000ms, 0678ms total)
T0914 005:753 JLINK_ReadReg(R12)  returns 0x000000C0 (0000ms, 0678ms total)
T0914 005:753 JLINK_ReadReg(R13 (SP))  returns 0x200004D4 (0000ms, 0678ms total)
T0914 005:753 JLINK_ReadReg(R14)  returns 0xFFFFFFF9 (0000ms, 0678ms total)
T0914 005:753 JLINK_ReadReg(R15 (PC))  returns 0x08000486 (0000ms, 0678ms total)
T0914 005:753 JLINK_ReadReg(XPSR)  returns 0x2100000F (0000ms, 0678ms total)
T0914 005:753 JLINK_ReadReg(MSP)  returns 0x200004D4 (0000ms, 0678ms total)
T0914 005:753 JLINK_ReadReg(PSP)  returns 0x20001000 (0000ms, 0678ms total)
T0914 005:753 JLINK_ReadReg(CFBP)  returns 0x00000000 (0000ms, 0678ms total)
T1D08 005:754 JLINK_ReadMem (0x200004D4, 0x0004 Bytes, ...) -- CPU_ReadMem(64 bytes @ 0x200004C0) -- Updating C cache (64 bytes @ 0x200004C0) -- Read from C cache (4 bytes @ 0x200004D4) - Data: F9 FF FF FF  returns 0x00 (0001ms, 0679ms total)
T1D08 005:755 JLINK_ReadMem (0x200004F0, 0x0004 Bytes, ...) -- Read from C cache (4 bytes @ 0x200004F0) - Data: 9A 0E 00 08  returns 0x00 (0000ms, 0679ms total)
T1D08 005:755 JLINK_ReadMem (0x200004F4, 0x0004 Bytes, ...) -- Read from C cache (4 bytes @ 0x200004F4) - Data: 00 00 00 21  returns 0x00 (0000ms, 0679ms total)
T1D08 005:755 JLINK_ReadMem (0x200004EC, 0x0004 Bytes, ...) -- Read from C cache (4 bytes @ 0x200004EC) - Data: 99 0E 00 08  returns 0x00 (0000ms, 0679ms total)
T1D08 005:755 JLINK_ReadMem (0xE000ED28, 0x0004 Bytes, ...) -- CPU_ReadMem(4 bytes @ 0xE000ED28) - Data: 00 00 00 00  returns 0x00 (0001ms, 0680ms total)
T1D08 005:761 JLINK_ReadMemU32(0xE0001004, 0x0001 Items, ...) -- CPU_ReadMem(4 bytes @ 0xE0001004) - Data: 70 13 37 00  returns 0x01 (0000ms, 0680ms total)
T1D08 005:762 JLINK_ReadMem (0x40010C14, 0x0004 Bytes, ...) -- CPU_ReadMem(4 bytes @ 0x40010C14) - Data: 00 00 00 00  returns 0x00 (0001ms, 0681ms total)
T1D08 005:763 JLINK_ReadMem (0x40010C10, 0x0004 Bytes, ...) -- CPU_ReadMem(4 bytes @ 0x40010C10) - Data: 00 00 00 00  returns 0x00 (0000ms, 0681ms total)
T1D08 005:764 JLINK_ReadMem (0x40011814, 0x0004 Bytes, ...) -- CPU_ReadMem(4 bytes @ 0x40011814) - Data: 00 00 00 00  returns 0x00 (0000ms, 0681ms total)
T1D08 005:764 JLINK_ReadMem (0x40011810, 0x0004 Bytes, ...) -- CPU_ReadMem(4 bytes @ 0x40011810) - Data: 00 00 00 00  returns 0x00 (0001ms, 0682ms total)
T1D08 005:769 JLINK_ReadMem (0x20000008, 0x0004 Bytes, ...) -- CPU_ReadMem(64 bytes @ 0x20000000) -- Updating C cache (64 bytes @ 0x20000000) -- Read from C cache (4 bytes @ 0x20000008) - Data: 00 00 00 00  returns 0x00 (0001ms, 0683ms total)
T1D08 005:783 JLINK_ReadMem (0x20000000, 0x0004 Bytes, ...) -- Read from C cache (4 bytes @ 0x20000000) - Data: 00 00 00 00  returns 0x00 (0000ms, 0683ms total)
T1D08 005:783 JLINK_ReadMem (0x40000824, 0x0002 Bytes, ...) -- CPU_ReadMem(2 bytes @ 0x40000824) - Data: 00 00  returns 0x00 (0002ms, 0685ms total)
T1D08 005:785 JLINK_ReadMem (0x2000000C, 0x0004 Bytes, ...) -- Read from C cache (4 bytes @ 0x2000000C) - Data: 00 00 00 00  returns 0x00 (0000ms, 0685ms total)
T1D08 005:786 JLINK_ReadMem (0x20000004, 0x0004 Bytes, ...) -- Read from C cache (4 bytes @ 0x20000004) - Data: 00 00 00 00  returns 0x00 (0000ms, 0685ms total)
T0914 008:058 JLINK_Step() -- CPU_ReadMem(64 bytes @ 0x08000480) -- Updating C cache (64 bytes @ 0x08000480) -- Read from C cache (2 bytes @ 0x08000486) -- Read from C cache (2 bytes @ 0x08000488) -- Simulated  returns 0x00 (0000ms, 0685ms total)
T0914 008:058 JLINK_ReadReg(R15 (PC))  returns 0x08000E38 (0000ms, 0685ms total)
T0914 008:058 JLINK_ReadReg(XPSR)  returns 0x2100000F (0000ms, 0685ms total)
T0914 008:059 JLINK_SetBPEx(Addr = 0x08000486, Type = 0xFFFFFFF2)  returns 0x00000004 (0000ms, 0685ms total)
T0914 008:059 JLINK_Go() -- CPU_WriteMem(4 bytes @ 0xE0001004) (0001ms, 0686ms total)
T0914 008:161 JLINK_IsHalted()  returns TRUE (0003ms, 0689ms total)
T0914 008:164 JLINK_Halt()  returns 0x00 (0000ms, 0686ms total)
T0914 008:164 JLINK_IsHalted()  returns TRUE (0000ms, 0686ms total)
T0914 008:164 JLINK_IsHalted()  returns TRUE (0000ms, 0686ms total)
T0914 008:164 JLINK_IsHalted()  returns TRUE (0000ms, 0686ms total)
T0914 008:164 JLINK_ReadReg(R15 (PC))  returns 0x08000486 (0000ms, 0686ms total)
T0914 008:164 JLINK_ReadReg(XPSR)  returns 0x2100000F (0000ms, 0686ms total)
T0914 008:164 JLINK_ClrBPEx(BPHandle = 0x00000004)  returns 0x00 (0000ms, 0686ms total)
T0914 008:164 JLINK_ReadMemU32(0xE000ED30, 0x0001 Items, ...) -- CPU_ReadMem(4 bytes @ 0xE000ED30) - Data: 03 00 00 00  returns 0x01 (0001ms, 0687ms total)
T0914 008:165 JLINK_ReadMemU32(0xE0001028, 0x0001 Items, ...) -- CPU_ReadMem(4 bytes @ 0xE0001028) - Data: 00 00 00 00  returns 0x01 (0001ms, 0688ms total)
T0914 008:166 JLINK_ReadMemU32(0xE0001038, 0x0001 Items, ...) -- CPU_ReadMem(4 bytes @ 0xE0001038) - Data: 00 02 00 00  returns 0x01 (0000ms, 0688ms total)
T0914 008:167 JLINK_ReadMemU32(0xE0001048, 0x0001 Items, ...) -- CPU_ReadMem(4 bytes @ 0xE0001048) - Data: 00 00 00 00  returns 0x01 (0000ms, 0688ms total)
T0914 008:167 JLINK_ReadMemU32(0xE0001058, 0x0001 Items, ...) -- CPU_ReadMem(4 bytes @ 0xE0001058) - Data: 00 00 00 00  returns 0x01 (0001ms, 0689ms total)
T0914 008:168 JLINK_ReadReg(R0)  returns 0x00000007 (0000ms, 0689ms total)
T0914 008:168 JLINK_ReadReg(R1)  returns 0x0036EE80 (0000ms, 0689ms total)
T0914 008:168 JLINK_ReadReg(R2)  returns 0xE000E000 (0000ms, 0689ms total)
T0914 008:168 JLINK_ReadReg(R3)  returns 0xE000ED18 (0000ms, 0689ms total)
T0914 008:168 JLINK_ReadReg(R4)  returns 0x00000047 (0000ms, 0689ms total)
T0914 008:168 JLINK_ReadReg(R5)  returns 0x00000031 (0000ms, 0689ms total)
T0914 008:168 JLINK_ReadReg(R6)  returns 0x0000001E (0000ms, 0689ms total)
T0914 008:168 JLINK_ReadReg(R7)  returns 0x00000000 (0001ms, 0690ms total)
T0914 008:169 JLINK_ReadReg(R8)  returns 0x00000000 (0000ms, 0690ms total)
T0914 008:169 JLINK_ReadReg(R9)  returns 0x20000160 (0000ms, 0690ms total)
T0914 008:169 JLINK_ReadReg(R10)  returns 0x00000000 (0000ms, 0690ms total)
T0914 008:169 JLINK_ReadReg(R11)  returns 0x00000000 (0000ms, 0690ms total)
T0914 008:169 JLINK_ReadReg(R12)  returns 0x000000C0 (0000ms, 0690ms total)
T0914 008:169 JLINK_ReadReg(R13 (SP))  returns 0x200004D4 (0000ms, 0690ms total)
T0914 008:169 JLINK_ReadReg(R14)  returns 0xFFFFFFF9 (0000ms, 0690ms total)
T0914 008:169 JLINK_ReadReg(R15 (PC))  returns 0x08000486 (0000ms, 0690ms total)
T0914 008:169 JLINK_ReadReg(XPSR)  returns 0x2100000F (0000ms, 0690ms total)
T0914 008:169 JLINK_ReadReg(MSP)  returns 0x200004D4 (0000ms, 0690ms total)
T0914 008:169 JLINK_ReadReg(PSP)  returns 0x20001000 (0000ms, 0690ms total)
T0914 008:169 JLINK_ReadReg(CFBP)  returns 0x00000000 (0000ms, 0690ms total)
T1D08 008:170 JLINK_ReadMem (0x200004D4, 0x0004 Bytes, ...) -- CPU_ReadMem(64 bytes @ 0x200004C0) -- Updating C cache (64 bytes @ 0x200004C0) -- Read from C cache (4 bytes @ 0x200004D4) - Data: F9 FF FF FF  returns 0x00 (0001ms, 0691ms total)
T1D08 008:171 JLINK_ReadMem (0x200004F0, 0x0004 Bytes, ...) -- Read from C cache (4 bytes @ 0x200004F0) - Data: 9A 0E 00 08  returns 0x00 (0000ms, 0691ms total)
T1D08 008:171 JLINK_ReadMem (0x200004F4, 0x0004 Bytes, ...) -- Read from C cache (4 bytes @ 0x200004F4) - Data: 00 00 00 21  returns 0x00 (0000ms, 0691ms total)
T1D08 008:171 JLINK_ReadMem (0x200004EC, 0x0004 Bytes, ...) -- Read from C cache (4 bytes @ 0x200004EC) - Data: 99 0E 00 08  returns 0x00 (0000ms, 0691ms total)
T1D08 008:171 JLINK_ReadMem (0xE000ED28, 0x0004 Bytes, ...) -- CPU_ReadMem(4 bytes @ 0xE000ED28) - Data: 00 00 00 00  returns 0x00 (0001ms, 0692ms total)
T1D08 008:172 JLINK_ReadMemU32(0xE0001004, 0x0001 Items, ...) -- CPU_ReadMem(4 bytes @ 0xE0001004) - Data: EA 01 6E 00  returns 0x01 (0001ms, 0693ms total)
T1D08 008:173 JLINK_ReadMem (0x40010C14, 0x0004 Bytes, ...) -- CPU_ReadMem(4 bytes @ 0x40010C14) - Data: 00 00 00 00  returns 0x00 (0001ms, 0694ms total)
T1D08 008:174 JLINK_ReadMem (0x40010C10, 0x0004 Bytes, ...) -- CPU_ReadMem(4 bytes @ 0x40010C10) - Data: 00 00 00 00  returns 0x00 (0001ms, 0695ms total)
T1D08 008:175 JLINK_ReadMem (0x40011814, 0x0004 Bytes, ...) -- CPU_ReadMem(4 bytes @ 0x40011814) - Data: 00 00 00 00  returns 0x00 (0001ms, 0696ms total)
T1D08 008:176 JLINK_ReadMem (0x40011810, 0x0004 Bytes, ...) -- CPU_ReadMem(4 bytes @ 0x40011810) - Data: 00 00 00 00  returns 0x00 (0000ms, 0696ms total)
T1D08 008:181 JLINK_ReadMem (0x20000008, 0x0004 Bytes, ...) -- CPU_ReadMem(64 bytes @ 0x20000000) -- Updating C cache (64 bytes @ 0x20000000) -- Read from C cache (4 bytes @ 0x20000008) - Data: 00 00 00 00  returns 0x00 (0001ms, 0697ms total)
T1D08 008:182 JLINK_ReadMem (0x20000000, 0x0004 Bytes, ...) -- Read from C cache (4 bytes @ 0x20000000) - Data: 00 00 00 00  returns 0x00 (0000ms, 0697ms total)
T1D08 008:182 JLINK_ReadMem (0x40000824, 0x0002 Bytes, ...) -- CPU_ReadMem(2 bytes @ 0x40000824) - Data: 00 00  returns 0x00 (0001ms, 0698ms total)
T1D08 008:183 JLINK_ReadMem (0x2000000C, 0x0004 Bytes, ...) -- Read from C cache (4 bytes @ 0x2000000C) - Data: 00 00 00 00  returns 0x00 (0000ms, 0698ms total)
T1D08 008:184 JLINK_ReadMem (0x20000004, 0x0004 Bytes, ...) -- Read from C cache (4 bytes @ 0x20000004) - Data: 00 00 00 00  returns 0x00 (0000ms, 0698ms total)
T0914 016:166 JLINK_Step() -- CPU_ReadMem(64 bytes @ 0x08000480) -- Updating C cache (64 bytes @ 0x08000480) -- Read from C cache (2 bytes @ 0x08000486) -- Read from C cache (2 bytes @ 0x08000488) -- Simulated  returns 0x00 (0000ms, 0698ms total)
T0914 016:166 JLINK_ReadReg(R15 (PC))  returns 0x08000E38 (0000ms, 0698ms total)
T0914 016:166 JLINK_ReadReg(XPSR)  returns 0x2100000F (0001ms, 0699ms total)
T0914 016:167 JLINK_SetBPEx(Addr = 0x08000486, Type = 0xFFFFFFF2)  returns 0x00000005 (0000ms, 0699ms total)
T0914 016:167 JLINK_Go() -- CPU_WriteMem(4 bytes @ 0xE0001004) (0001ms, 0700ms total)
T0914 016:268 JLINK_IsHalted()  returns TRUE (0004ms, 0704ms total)
T0914 016:272 JLINK_Halt()  returns 0x00 (0000ms, 0700ms total)
T0914 016:272 JLINK_IsHalted()  returns TRUE (0000ms, 0700ms total)
T0914 016:272 JLINK_IsHalted()  returns TRUE (0000ms, 0700ms total)
T0914 016:272 JLINK_IsHalted()  returns TRUE (0000ms, 0700ms total)
T0914 016:272 JLINK_ReadReg(R15 (PC))  returns 0x08000486 (0000ms, 0700ms total)
T0914 016:272 JLINK_ReadReg(XPSR)  returns 0x2100000F (0000ms, 0700ms total)
T0914 016:272 JLINK_ClrBPEx(BPHandle = 0x00000005)  returns 0x00 (0000ms, 0700ms total)
T0914 016:272 JLINK_ReadMemU32(0xE000ED30, 0x0001 Items, ...) -- CPU_ReadMem(4 bytes @ 0xE000ED30) - Data: 03 00 00 00  returns 0x01 (0001ms, 0701ms total)
T0914 016:273 JLINK_ReadMemU32(0xE0001028, 0x0001 Items, ...) -- CPU_ReadMem(4 bytes @ 0xE0001028) - Data: 00 00 00 00  returns 0x01 (0000ms, 0701ms total)
T0914 016:273 JLINK_ReadMemU32(0xE0001038, 0x0001 Items, ...) -- CPU_ReadMem(4 bytes @ 0xE0001038) - Data: 00 02 00 00  returns 0x01 (0001ms, 0702ms total)
T0914 016:274 JLINK_ReadMemU32(0xE0001048, 0x0001 Items, ...) -- CPU_ReadMem(4 bytes @ 0xE0001048) - Data: 00 00 00 00  returns 0x01 (0001ms, 0703ms total)
T0914 016:275 JLINK_ReadMemU32(0xE0001058, 0x0001 Items, ...) -- CPU_ReadMem(4 bytes @ 0xE0001058) - Data: 00 00 00 00  returns 0x01 (0001ms, 0704ms total)
T0914 016:276 JLINK_ReadReg(R0)  returns 0x00000007 (0000ms, 0704ms total)
T0914 016:276 JLINK_ReadReg(R1)  returns 0x0036EE80 (0000ms, 0704ms total)
T0914 016:276 JLINK_ReadReg(R2)  returns 0xE000E000 (0000ms, 0704ms total)
T0914 016:276 JLINK_ReadReg(R3)  returns 0xE000ED18 (0000ms, 0704ms total)
T0914 016:276 JLINK_ReadReg(R4)  returns 0x00000047 (0000ms, 0704ms total)
T0914 016:276 JLINK_ReadReg(R5)  returns 0x00000031 (0000ms, 0704ms total)
T0914 016:276 JLINK_ReadReg(R6)  returns 0x0000001E (0000ms, 0704ms total)
T0914 016:276 JLINK_ReadReg(R7)  returns 0x00000000 (0000ms, 0704ms total)
T0914 016:276 JLINK_ReadReg(R8)  returns 0x00000000 (0000ms, 0704ms total)
T0914 016:276 JLINK_ReadReg(R9)  returns 0x20000160 (0000ms, 0704ms total)
T0914 016:276 JLINK_ReadReg(R10)  returns 0x00000000 (0000ms, 0704ms total)
T0914 016:276 JLINK_ReadReg(R11)  returns 0x00000000 (0000ms, 0704ms total)
T0914 016:276 JLINK_ReadReg(R12)  returns 0x000000C0 (0000ms, 0704ms total)
T0914 016:276 JLINK_ReadReg(R13 (SP))  returns 0x200004D4 (0000ms, 0704ms total)
T0914 016:276 JLINK_ReadReg(R14)  returns 0xFFFFFFF9 (0000ms, 0704ms total)
T0914 016:276 JLINK_ReadReg(R15 (PC))  returns 0x08000486 (0000ms, 0704ms total)
T0914 016:276 JLINK_ReadReg(XPSR)  returns 0x2100000F (0001ms, 0705ms total)
T0914 016:277 JLINK_ReadReg(MSP)  returns 0x200004D4 (0000ms, 0705ms total)
T0914 016:277 JLINK_ReadReg(PSP)  returns 0x20001000 (0000ms, 0705ms total)
T0914 016:277 JLINK_ReadReg(CFBP)  returns 0x00000000 (0000ms, 0705ms total)
T1D08 016:279 JLINK_ReadMem (0x200004D4, 0x0004 Bytes, ...) -- CPU_ReadMem(64 bytes @ 0x200004C0) -- Updating C cache (64 bytes @ 0x200004C0) -- Read from C cache (4 bytes @ 0x200004D4) - Data: F9 FF FF FF  returns 0x00 (0001ms, 0706ms total)
T1D08 016:280 JLINK_ReadMem (0x200004F0, 0x0004 Bytes, ...) -- Read from C cache (4 bytes @ 0x200004F0) - Data: 9A 0E 00 08  returns 0x00 (0000ms, 0706ms total)
T1D08 016:280 JLINK_ReadMem (0x200004F4, 0x0004 Bytes, ...) -- Read from C cache (4 bytes @ 0x200004F4) - Data: 00 00 00 21  returns 0x00 (0000ms, 0706ms total)
T1D08 016:280 JLINK_ReadMem (0x200004EC, 0x0004 Bytes, ...) -- Read from C cache (4 bytes @ 0x200004EC) - Data: 99 0E 00 08  returns 0x00 (0000ms, 0706ms total)
T1D08 016:280 JLINK_ReadMem (0xE000ED28, 0x0004 Bytes, ...) -- CPU_ReadMem(4 bytes @ 0xE000ED28) - Data: 00 00 00 00  returns 0x00 (0001ms, 0707ms total)
T1D08 016:281 JLINK_ReadMemU32(0xE0001004, 0x0001 Items, ...) -- CPU_ReadMem(4 bytes @ 0xE0001004) - Data: 64 F0 A4 00  returns 0x01 (0001ms, 0708ms total)
T1D08 016:282 JLINK_ReadMem (0x40010C14, 0x0004 Bytes, ...) -- CPU_ReadMem(4 bytes @ 0x40010C14) - Data: 00 00 00 00  returns 0x00 (0001ms, 0709ms total)
T1D08 016:283 JLINK_ReadMem (0x40010C10, 0x0004 Bytes, ...) -- CPU_ReadMem(4 bytes @ 0x40010C10) - Data: 00 00 00 00  returns 0x00 (0001ms, 0710ms total)
T1D08 016:284 JLINK_ReadMem (0x40011814, 0x0004 Bytes, ...) -- CPU_ReadMem(4 bytes @ 0x40011814) - Data: 00 00 00 00  returns 0x00 (0001ms, 0711ms total)
T1D08 016:285 JLINK_ReadMem (0x40011810, 0x0004 Bytes, ...) -- CPU_ReadMem(4 bytes @ 0x40011810) - Data: 00 00 00 00  returns 0x00 (0001ms, 0712ms total)
T1D08 016:304 JLINK_ReadMem (0x20000008, 0x0004 Bytes, ...) -- CPU_ReadMem(64 bytes @ 0x20000000) -- Updating C cache (64 bytes @ 0x20000000) -- Read from C cache (4 bytes @ 0x20000008) - Data: C7 10 02 00  returns 0x00 (0001ms, 0713ms total)
T1D08 016:307 JLINK_ReadMem (0x20000000, 0x0004 Bytes, ...) -- Read from C cache (4 bytes @ 0x20000000) - Data: 3F 1F 00 00  returns 0x00 (0000ms, 0713ms total)
T1D08 016:308 JLINK_ReadMem (0x40000824, 0x0002 Bytes, ...) -- CPU_ReadMem(2 bytes @ 0x40000824) - Data: 3F 1F  returns 0x00 (0001ms, 0715ms total)
T1D08 016:310 JLINK_ReadMem (0x2000000C, 0x0004 Bytes, ...) -- Read from C cache (4 bytes @ 0x2000000C) - Data: 3F 1F 00 00  returns 0x00 (0000ms, 0715ms total)
T1D08 016:313 JLINK_ReadMem (0x20000004, 0x0004 Bytes, ...) -- Read from C cache (4 bytes @ 0x20000004) - Data: 3F 1F 00 00  returns 0x00 (0000ms, 0715ms total)
T0914 026:641 JLINK_Step() -- CPU_ReadMem(64 bytes @ 0x08000480) -- Updating C cache (64 bytes @ 0x08000480) -- Read from C cache (2 bytes @ 0x08000486) -- Read from C cache (2 bytes @ 0x08000488) -- Simulated  returns 0x00 (0001ms, 0716ms total)
T0914 026:642 JLINK_ReadReg(R15 (PC))  returns 0x08000E38 (0000ms, 0716ms total)
T0914 026:642 JLINK_ReadReg(XPSR)  returns 0x2100000F (0000ms, 0716ms total)
T0914 026:642 JLINK_SetBPEx(Addr = 0x08000486, Type = 0xFFFFFFF2)  returns 0x00000006 (0000ms, 0716ms total)
T0914 026:642 JLINK_Go() -- CPU_WriteMem(4 bytes @ 0xE0001004) (0001ms, 0717ms total)
T0914 026:744 JLINK_IsHalted()  returns TRUE (0003ms, 0720ms total)
T0914 026:747 JLINK_Halt()  returns 0x00 (0000ms, 0717ms total)
T0914 026:747 JLINK_IsHalted()  returns TRUE (0000ms, 0717ms total)
T0914 026:747 JLINK_IsHalted()  returns TRUE (0000ms, 0717ms total)
T0914 026:747 JLINK_IsHalted()  returns TRUE (0000ms, 0717ms total)
T0914 026:747 JLINK_ReadReg(R15 (PC))  returns 0x08000486 (0000ms, 0717ms total)
T0914 026:747 JLINK_ReadReg(XPSR)  returns 0x2100000F (0000ms, 0717ms total)
T0914 026:747 JLINK_ClrBPEx(BPHandle = 0x00000006)  returns 0x00 (0000ms, 0717ms total)
T0914 026:747 JLINK_ReadMemU32(0xE000ED30, 0x0001 Items, ...) -- CPU_ReadMem(4 bytes @ 0xE000ED30) - Data: 03 00 00 00  returns 0x01 (0001ms, 0718ms total)
T0914 026:748 JLINK_ReadMemU32(0xE0001028, 0x0001 Items, ...) -- CPU_ReadMem(4 bytes @ 0xE0001028) - Data: 00 00 00 00  returns 0x01 (0000ms, 0718ms total)
T0914 026:748 JLINK_ReadMemU32(0xE0001038, 0x0001 Items, ...) -- CPU_ReadMem(4 bytes @ 0xE0001038) - Data: 00 02 00 00  returns 0x01 (0001ms, 0719ms total)
T0914 026:749 JLINK_ReadMemU32(0xE0001048, 0x0001 Items, ...) -- CPU_ReadMem(4 bytes @ 0xE0001048) - Data: 00 00 00 00  returns 0x01 (0001ms, 0720ms total)
T0914 026:750 JLINK_ReadMemU32(0xE0001058, 0x0001 Items, ...) -- CPU_ReadMem(4 bytes @ 0xE0001058) - Data: 00 00 00 00  returns 0x01 (0000ms, 0720ms total)
T0914 026:750 JLINK_ReadReg(R0)  returns 0x00000007 (0000ms, 0720ms total)
T0914 026:750 JLINK_ReadReg(R1)  returns 0x0036EE80 (0000ms, 0720ms total)
T0914 026:750 JLINK_ReadReg(R2)  returns 0xE000E000 (0000ms, 0720ms total)
T0914 026:750 JLINK_ReadReg(R3)  returns 0xE000ED18 (0000ms, 0720ms total)
T0914 026:750 JLINK_ReadReg(R4)  returns 0x00000047 (0000ms, 0720ms total)
T0914 026:750 JLINK_ReadReg(R5)  returns 0x00000031 (0000ms, 0720ms total)
T0914 026:750 JLINK_ReadReg(R6)  returns 0x0000001E (0000ms, 0720ms total)
T0914 026:750 JLINK_ReadReg(R7)  returns 0x00000000 (0000ms, 0720ms total)
T0914 026:751 JLINK_ReadReg(R8)  returns 0x00000000 (0000ms, 0720ms total)
T0914 026:751 JLINK_ReadReg(R9)  returns 0x20000160 (0000ms, 0720ms total)
T0914 026:751 JLINK_ReadReg(R10)  returns 0x00000000 (0000ms, 0720ms total)
T0914 026:751 JLINK_ReadReg(R11)  returns 0x00000000 (0000ms, 0720ms total)
T0914 026:751 JLINK_ReadReg(R12)  returns 0x000000C0 (0000ms, 0720ms total)
T0914 026:751 JLINK_ReadReg(R13 (SP))  returns 0x200004D4 (0000ms, 0720ms total)
T0914 026:751 JLINK_ReadReg(R14)  returns 0xFFFFFFF9 (0000ms, 0720ms total)
T0914 026:751 JLINK_ReadReg(R15 (PC))  returns 0x08000486 (0000ms, 0720ms total)
T0914 026:751 JLINK_ReadReg(XPSR)  returns 0x2100000F (0000ms, 0720ms total)
T0914 026:751 JLINK_ReadReg(MSP)  returns 0x200004D4 (0000ms, 0720ms total)
T0914 026:751 JLINK_ReadReg(PSP)  returns 0x20001000 (0000ms, 0720ms total)
T0914 026:751 JLINK_ReadReg(CFBP)  returns 0x00000000 (0000ms, 0720ms total)
T1D08 026:752 JLINK_ReadMem (0x200004D4, 0x0004 Bytes, ...) -- CPU_ReadMem(64 bytes @ 0x200004C0) -- Updating C cache (64 bytes @ 0x200004C0) -- Read from C cache (4 bytes @ 0x200004D4) - Data: F9 FF FF FF  returns 0x00 (0001ms, 0721ms total)
T1D08 026:753 JLINK_ReadMem (0x200004F0, 0x0004 Bytes, ...) -- Read from C cache (4 bytes @ 0x200004F0) - Data: 9A 0E 00 08  returns 0x00 (0000ms, 0721ms total)
T1D08 026:753 JLINK_ReadMem (0x200004F4, 0x0004 Bytes, ...) -- Read from C cache (4 bytes @ 0x200004F4) - Data: 00 00 00 21  returns 0x00 (0000ms, 0721ms total)
T1D08 026:753 JLINK_ReadMem (0x200004EC, 0x0004 Bytes, ...) -- Read from C cache (4 bytes @ 0x200004EC) - Data: 99 0E 00 08  returns 0x00 (0000ms, 0721ms total)
T1D08 026:753 JLINK_ReadMem (0xE000ED28, 0x0004 Bytes, ...) -- CPU_ReadMem(4 bytes @ 0xE000ED28) - Data: 00 00 00 00  returns 0x00 (0001ms, 0722ms total)
T1D08 026:754 JLINK_ReadMemU32(0xE0001004, 0x0001 Items, ...) -- CPU_ReadMem(4 bytes @ 0xE0001004) - Data: DE DE DB 00  returns 0x01 (0001ms, 0723ms total)
T1D08 026:755 JLINK_ReadMem (0x40010C14, 0x0004 Bytes, ...) -- CPU_ReadMem(4 bytes @ 0x40010C14) - Data: 00 00 00 00  returns 0x00 (0001ms, 0724ms total)
T1D08 026:756 JLINK_ReadMem (0x40010C10, 0x0004 Bytes, ...) -- CPU_ReadMem(4 bytes @ 0x40010C10) - Data: 00 00 00 00  returns 0x00 (0001ms, 0725ms total)
T1D08 026:757 JLINK_ReadMem (0x40011814, 0x0004 Bytes, ...) -- CPU_ReadMem(4 bytes @ 0x40011814) - Data: 00 00 00 00  returns 0x00 (0000ms, 0725ms total)
T1D08 026:757 JLINK_ReadMem (0x40011810, 0x0004 Bytes, ...) -- CPU_ReadMem(4 bytes @ 0x40011810) - Data: 00 00 00 00  returns 0x00 (0001ms, 0726ms total)
T1D08 026:777 JLINK_ReadMem (0x20000008, 0x0004 Bytes, ...) -- CPU_ReadMem(64 bytes @ 0x20000000) -- Updating C cache (64 bytes @ 0x20000000) -- Read from C cache (4 bytes @ 0x20000008) - Data: 10 00 00 00  returns 0x00 (0001ms, 0727ms total)
T1D08 026:783 JLINK_ReadMem (0x20000000, 0x0004 Bytes, ...) -- Read from C cache (4 bytes @ 0x20000000) - Data: 00 00 00 00  returns 0x00 (0000ms, 0727ms total)
T1D08 026:784 JLINK_ReadMem (0x40000824, 0x0002 Bytes, ...) -- CPU_ReadMem(2 bytes @ 0x40000824) - Data: 00 00  returns 0x00 (0001ms, 0728ms total)
T1D08 026:786 JLINK_ReadMem (0x2000000C, 0x0004 Bytes, ...) -- Read from C cache (4 bytes @ 0x2000000C) - Data: 00 00 00 00  returns 0x00 (0000ms, 0728ms total)
T1D08 026:790 JLINK_ReadMem (0x20000004, 0x0004 Bytes, ...) -- Read from C cache (4 bytes @ 0x20000004) - Data: 01 00 00 00  returns 0x00 (0000ms, 0728ms total)
T0914 030:205 JLINK_Step() -- CPU_ReadMem(64 bytes @ 0x08000480) -- Updating C cache (64 bytes @ 0x08000480) -- Read from C cache (2 bytes @ 0x08000486) -- Read from C cache (2 bytes @ 0x08000488) -- Simulated  returns 0x00 (0001ms, 0729ms total)
T0914 030:206 JLINK_ReadReg(R15 (PC))  returns 0x08000E38 (0000ms, 0729ms total)
T0914 030:206 JLINK_ReadReg(XPSR)  returns 0x2100000F (0000ms, 0729ms total)
T0914 030:206 JLINK_SetBPEx(Addr = 0x08000486, Type = 0xFFFFFFF2)  returns 0x00000007 (0000ms, 0729ms total)
T0914 030:206 JLINK_Go() -- CPU_WriteMem(4 bytes @ 0xE0001004) (0001ms, 0730ms total)
T0914 030:308 JLINK_IsHalted()  returns TRUE (0003ms, 0733ms total)
T0914 030:311 JLINK_Halt()  returns 0x00 (0000ms, 0730ms total)
T0914 030:311 JLINK_IsHalted()  returns TRUE (0000ms, 0730ms total)
T0914 030:311 JLINK_IsHalted()  returns TRUE (0000ms, 0730ms total)
T0914 030:311 JLINK_IsHalted()  returns TRUE (0000ms, 0730ms total)
T0914 030:311 JLINK_ReadReg(R15 (PC))  returns 0x08000486 (0000ms, 0730ms total)
T0914 030:311 JLINK_ReadReg(XPSR)  returns 0x2100000F (0000ms, 0730ms total)
T0914 030:311 JLINK_ClrBPEx(BPHandle = 0x00000007)  returns 0x00 (0000ms, 0730ms total)
T0914 030:311 JLINK_ReadMemU32(0xE000ED30, 0x0001 Items, ...) -- CPU_ReadMem(4 bytes @ 0xE000ED30) - Data: 03 00 00 00  returns 0x01 (0001ms, 0731ms total)
T0914 030:312 JLINK_ReadMemU32(0xE0001028, 0x0001 Items, ...) -- CPU_ReadMem(4 bytes @ 0xE0001028) - Data: 00 00 00 00  returns 0x01 (0000ms, 0731ms total)
T0914 030:312 JLINK_ReadMemU32(0xE0001038, 0x0001 Items, ...) -- CPU_ReadMem(4 bytes @ 0xE0001038) - Data: 00 02 00 00  returns 0x01 (0001ms, 0732ms total)
T0914 030:313 JLINK_ReadMemU32(0xE0001048, 0x0001 Items, ...) -- CPU_ReadMem(4 bytes @ 0xE0001048) - Data: 00 00 00 00  returns 0x01 (0001ms, 0733ms total)
T0914 030:314 JLINK_ReadMemU32(0xE0001058, 0x0001 Items, ...) -- CPU_ReadMem(4 bytes @ 0xE0001058) - Data: 00 00 00 00  returns 0x01 (0000ms, 0733ms total)
T0914 030:314 JLINK_ReadReg(R0)  returns 0x00000007 (0000ms, 0733ms total)
T0914 030:314 JLINK_ReadReg(R1)  returns 0x0036EE80 (0000ms, 0733ms total)
T0914 030:314 JLINK_ReadReg(R2)  returns 0xE000E000 (0001ms, 0734ms total)
T0914 030:315 JLINK_ReadReg(R3)  returns 0xE000ED18 (0000ms, 0734ms total)
T0914 030:315 JLINK_ReadReg(R4)  returns 0x00000047 (0000ms, 0734ms total)
T0914 030:315 JLINK_ReadReg(R5)  returns 0x00000031 (0000ms, 0734ms total)
T0914 030:315 JLINK_ReadReg(R6)  returns 0x0000001E (0000ms, 0734ms total)
T0914 030:315 JLINK_ReadReg(R7)  returns 0x00000000 (0000ms, 0734ms total)
T0914 030:315 JLINK_ReadReg(R8)  returns 0x00000000 (0000ms, 0734ms total)
T0914 030:315 JLINK_ReadReg(R9)  returns 0x20000160 (0000ms, 0734ms total)
T0914 030:315 JLINK_ReadReg(R10)  returns 0x00000000 (0000ms, 0734ms total)
T0914 030:315 JLINK_ReadReg(R11)  returns 0x00000000 (0000ms, 0734ms total)
T0914 030:315 JLINK_ReadReg(R12)  returns 0x000000C0 (0000ms, 0734ms total)
T0914 030:315 JLINK_ReadReg(R13 (SP))  returns 0x200004D4 (0000ms, 0734ms total)
T0914 030:315 JLINK_ReadReg(R14)  returns 0xFFFFFFF9 (0000ms, 0734ms total)
T0914 030:315 JLINK_ReadReg(R15 (PC))  returns 0x08000486 (0000ms, 0734ms total)
T0914 030:315 JLINK_ReadReg(XPSR)  returns 0x2100000F (0000ms, 0734ms total)
T0914 030:315 JLINK_ReadReg(MSP)  returns 0x200004D4 (0000ms, 0734ms total)
T0914 030:315 JLINK_ReadReg(PSP)  returns 0x20001000 (0000ms, 0734ms total)
T0914 030:316 JLINK_ReadReg(CFBP)  returns 0x00000000 (0000ms, 0735ms total)
T1D08 030:316 JLINK_ReadMem (0x200004D4, 0x0004 Bytes, ...) -- CPU_ReadMem(64 bytes @ 0x200004C0) -- Updating C cache (64 bytes @ 0x200004C0) -- Read from C cache (4 bytes @ 0x200004D4) - Data: F9 FF FF FF  returns 0x00 (0001ms, 0736ms total)
T1D08 030:317 JLINK_ReadMem (0x200004F0, 0x0004 Bytes, ...) -- Read from C cache (4 bytes @ 0x200004F0) - Data: 9A 0E 00 08  returns 0x00 (0000ms, 0736ms total)
T1D08 030:317 JLINK_ReadMem (0x200004F4, 0x0004 Bytes, ...) -- Read from C cache (4 bytes @ 0x200004F4) - Data: 00 00 00 21  returns 0x00 (0000ms, 0736ms total)
T1D08 030:317 JLINK_ReadMem (0x200004EC, 0x0004 Bytes, ...) -- Read from C cache (4 bytes @ 0x200004EC) - Data: 99 0E 00 08  returns 0x00 (0000ms, 0736ms total)
T1D08 030:317 JLINK_ReadMem (0xE000ED28, 0x0004 Bytes, ...) -- CPU_ReadMem(4 bytes @ 0xE000ED28) - Data: 00 00 00 00  returns 0x00 (0001ms, 0737ms total)
T1D08 030:318 JLINK_ReadMemU32(0xE0001004, 0x0001 Items, ...) -- CPU_ReadMem(4 bytes @ 0xE0001004) - Data: 58 CD 12 01  returns 0x01 (0001ms, 0738ms total)
T1D08 030:321 JLINK_ReadMem (0x40010C14, 0x0004 Bytes, ...) -- CPU_ReadMem(4 bytes @ 0x40010C14) - Data: 00 00 00 00  returns 0x00 (0000ms, 0738ms total)
T1D08 030:321 JLINK_ReadMem (0x40010C10, 0x0004 Bytes, ...) -- CPU_ReadMem(4 bytes @ 0x40010C10) - Data: 00 00 00 00  returns 0x00 (0001ms, 0739ms total)
T1D08 030:322 JLINK_ReadMem (0x40011814, 0x0004 Bytes, ...) -- CPU_ReadMem(4 bytes @ 0x40011814) - Data: 00 00 00 00  returns 0x00 (0001ms, 0740ms total)
T1D08 030:323 JLINK_ReadMem (0x40011810, 0x0004 Bytes, ...) -- CPU_ReadMem(4 bytes @ 0x40011810) - Data: 00 00 00 00  returns 0x00 (0000ms, 0740ms total)
T1D08 030:343 JLINK_ReadMem (0x20000008, 0x0004 Bytes, ...) -- CPU_ReadMem(64 bytes @ 0x20000000) -- Updating C cache (64 bytes @ 0x20000000) -- Read from C cache (4 bytes @ 0x20000008) - Data: 00 00 00 00  returns 0x00 (0000ms, 0740ms total)
T1D08 030:347 JLINK_ReadMem (0x20000000, 0x0004 Bytes, ...) -- Read from C cache (4 bytes @ 0x20000000) - Data: 00 00 00 00  returns 0x00 (0000ms, 0740ms total)
T1D08 030:348 JLINK_ReadMem (0x40000824, 0x0002 Bytes, ...) -- CPU_ReadMem(2 bytes @ 0x40000824) - Data: 00 00  returns 0x00 (0001ms, 0741ms total)
T1D08 030:350 JLINK_ReadMem (0x2000000C, 0x0004 Bytes, ...) -- Read from C cache (4 bytes @ 0x2000000C) - Data: 00 00 00 00  returns 0x00 (0000ms, 0741ms total)
T1D08 030:352 JLINK_ReadMem (0x20000004, 0x0004 Bytes, ...) -- Read from C cache (4 bytes @ 0x20000004) - Data: 00 00 00 00  returns 0x00 (0000ms, 0741ms total)
T0914 031:425 JLINK_Step() -- CPU_ReadMem(64 bytes @ 0x08000480) -- Updating C cache (64 bytes @ 0x08000480) -- Read from C cache (2 bytes @ 0x08000486) -- Read from C cache (2 bytes @ 0x08000488) -- Simulated  returns 0x00 (0001ms, 0742ms total)
T0914 031:426 JLINK_ReadReg(R15 (PC))  returns 0x08000E38 (0000ms, 0742ms total)
T0914 031:426 JLINK_ReadReg(XPSR)  returns 0x2100000F (0000ms, 0742ms total)
T0914 031:426 JLINK_SetBPEx(Addr = 0x08000486, Type = 0xFFFFFFF2)  returns 0x00000008 (0000ms, 0742ms total)
T0914 031:426 JLINK_Go() -- CPU_WriteMem(4 bytes @ 0xE0001004) (0001ms, 0743ms total)
T0914 031:528 JLINK_IsHalted()  returns TRUE (0002ms, 0745ms total)
T0914 031:530 JLINK_Halt()  returns 0x00 (0000ms, 0743ms total)
T0914 031:530 JLINK_IsHalted()  returns TRUE (0000ms, 0743ms total)
T0914 031:530 JLINK_IsHalted()  returns TRUE (0000ms, 0743ms total)
T0914 031:530 JLINK_IsHalted()  returns TRUE (0000ms, 0743ms total)
T0914 031:530 JLINK_ReadReg(R15 (PC))  returns 0x08000486 (0000ms, 0743ms total)
T0914 031:530 JLINK_ReadReg(XPSR)  returns 0x2100000F (0000ms, 0743ms total)
T0914 031:530 JLINK_ClrBPEx(BPHandle = 0x00000008)  returns 0x00 (0000ms, 0743ms total)
T0914 031:530 JLINK_ReadMemU32(0xE000ED30, 0x0001 Items, ...) -- CPU_ReadMem(4 bytes @ 0xE000ED30) - Data: 03 00 00 00  returns 0x01 (0002ms, 0745ms total)
T0914 031:532 JLINK_ReadMemU32(0xE0001028, 0x0001 Items, ...) -- CPU_ReadMem(4 bytes @ 0xE0001028) - Data: 00 00 00 00  returns 0x01 (0000ms, 0745ms total)
T0914 031:532 JLINK_ReadMemU32(0xE0001038, 0x0001 Items, ...) -- CPU_ReadMem(4 bytes @ 0xE0001038) - Data: 00 02 00 00  returns 0x01 (0001ms, 0746ms total)
T0914 031:533 JLINK_ReadMemU32(0xE0001048, 0x0001 Items, ...) -- CPU_ReadMem(4 bytes @ 0xE0001048) - Data: 00 00 00 00  returns 0x01 (0001ms, 0747ms total)
T0914 031:534 JLINK_ReadMemU32(0xE0001058, 0x0001 Items, ...) -- CPU_ReadMem(4 bytes @ 0xE0001058) - Data: 00 00 00 00  returns 0x01 (0001ms, 0748ms total)
